
**** 09/11/16 11:12:38 ***** PSpice 16.6.0 (October 2012) ***** ID# 0 ********

 ** Profile: "SCHEMATIC1-bias_point"  [ C:\Users\Usuario\Desktop\Insoladora_v2\Insoladora_Esquematicos\tests-pspicefiles\schematic1\b


 ****     CIRCUIT DESCRIPTION


******************************************************************************




** Creating circuit file "bias_point.cir" 
** WARNING: THIS AUTOMATICALLY GENERATED FILE MAY BE OVERWRITTEN BY SUBSEQUENT SIMULATIONS

*Libraries: 
* Profile Libraries :
* Local Libraries :
* From [PSPICE NETLIST] section of C:\SPB_Data\cdssetup\OrCAD_PSpice/16.6.0/PSpice.ini file:
.lib "nom.lib" 

*Analysis directives: 
.OPTIONS ADVCONV
.PROBE64 V(alias(*)) I(alias(*)) W(alias(*)) D(alias(*)) NOISE(alias(*)) 
.INC "..\SCHEMATIC1.net" 



**** INCLUDING SCHEMATIC1.net ****
* source TESTS
Q_Q1         N408227 N408221 N408147 BC547B 
R_R1         0 N408147  60 TC=0,0 
R_R2         N408231 N408221  220 TC=0,0 
V_V2         N408227 0 12Vdc
V_V1         N408231 0 5Vdc

**** RESUMING bias_point.cir ****
.END

**** 09/11/16 11:12:38 ***** PSpice 16.6.0 (October 2012) ***** ID# 0 ********

 ** Profile: "SCHEMATIC1-bias_point"  [ C:\Users\Usuario\Desktop\Insoladora_v2\Insoladora_Esquematicos\tests-pspicefiles\schematic1\b


 ****     BJT MODEL PARAMETERS


******************************************************************************




               BC547B          
               NPN             
       LEVEL    1            
          IS    7.049000E-15 
          BF  374.6          
          NF    1            
         VAF   62.79         
         IKF     .08157      
         ISE   68.000000E-15 
          NE    1.576        
          BR    1            
          NR    1            
         IKR    3.924        
         ISC   12.400000E-15 
          NC    1.835        
          NK     .4767       
         ISS    0            
          RE    0            
          RC     .9747       
         CJE   11.500000E-12 
         VJE     .5          
         MJE     .6715       
         CJC    5.250000E-12 
         VJC     .5697       
         MJC     .3147       
        XCJC    1            
         CJS    0            
         VJS     .75         
          TF  410.200000E-12 
         XTF   40.06         
         VTF   10            
         ITF    1.491        
          TR   10.000000E-09 
         XTB    1.5          
          KF    0            
          AF    1            
          CN    2.42         
           D     .87         


**** 09/11/16 11:12:38 ***** PSpice 16.6.0 (October 2012) ***** ID# 0 ********

 ** Profile: "SCHEMATIC1-bias_point"  [ C:\Users\Usuario\Desktop\Insoladora_v2\Insoladora_Esquematicos\tests-pspicefiles\schematic1\b


 ****     SMALL SIGNAL BIAS SOLUTION       TEMPERATURE =   27.000 DEG C


******************************************************************************



 NODE   VOLTAGE     NODE   VOLTAGE     NODE   VOLTAGE     NODE   VOLTAGE


(N408147)    4.1508                   (N408221)    4.9352                       

(N408227)   12.0000                   (N408231)    5.0000                   




    VOLTAGE SOURCE CURRENTS
    NAME         CURRENT

    V_V2        -6.889E-02
    V_V1        -2.945E-04

    TOTAL POWER DISSIPATION   8.28E-01  WATTS



          JOB CONCLUDED

**** 09/11/16 11:12:38 ***** PSpice 16.6.0 (October 2012) ***** ID# 0 ********

 ** Profile: "SCHEMATIC1-bias_point"  [ C:\Users\Usuario\Desktop\Insoladora_v2\Insoladora_Esquematicos\tests-pspicefiles\schematic1\b


 ****     JOB STATISTICS SUMMARY


******************************************************************************



  Total job time (using Solver 1)   =         .05
